#   Hz   S  RI   R   50
!
1.000000e+09 -5.958826e-02 1.020309e-01 5.371047e-01 8.193804e-01 5.371047e-01 8.193804e-01 -5.958826e-02 1.020309e-01
1.097744e+09 -1.439587e-02 1.111060e-01 6.951073e-01 6.917951e-01 6.951073e-01 6.917951e-01 -1.439587e-02 1.111060e-01
1.195489e+09 3.030870e-02 1.010583e-01 8.244651e-01 5.341180e-01 8.244651e-01 5.341180e-01 3.030870e-02 1.010583e-01
1.293233e+09 6.683157e-02 7.373935e-02 9.192859e-01 3.522507e-01 9.192859e-01 3.522507e-01 6.683157e-02 7.373935e-02
1.390977e+09 8.884700e-02 3.397730e-02 9.747102e-01 1.534564e-01 9.747102e-01 1.534564e-01 8.884700e-02 3.397730e-02
1.488722e+09 9.252852e-02 -1.119313e-02 9.873680e-01 -5.376403e-02 9.873680e-01 -5.376403e-02 9.252852e-02 -1.119313e-02
1.586466e+09 7.729088e-02 -5.374271e-02 9.558296e-01 -2.600122e-01 9.558296e-01 -2.600122e-01 7.729088e-02 -5.374271e-02
1.684211e+09 4.595158e-02 -8.610637e-02 8.809337e-01 -4.555410e-01 8.809337e-01 -4.555410e-01 4.595158e-02 -8.610637e-02
1.781955e+09 4.231472e-03 -1.025976e-01 7.658897e-01 -6.309345e-01 7.658897e-01 -6.309345e-01 4.231472e-03 -1.025976e-01
1.879699e+09 -4.032713e-02 -1.004687e-01 6.161112e-01 -7.777965e-01 6.161112e-01 -7.777965e-01 -4.032713e-02 -1.004687e-01
1.977444e+09 -7.979456e-02 -8.038126e-02 4.388095e-01 -8.893211e-01 4.388095e-01 -8.893211e-01 -7.979456e-02 -8.038126e-02
2.075188e+09 -1.073255e-01 -4.620203e-02 2.424386e-01 -9.606564e-01 2.424386e-01 -9.606564e-01 -1.073255e-01 -4.620203e-02
2.172932e+09 -1.183648e-01 -4.201591e-03 3.610606e-02 -9.890399e-01 3.610606e-02 -9.890399e-01 -1.183648e-01 -4.201591e-03
2.270677e+09 -1.113740e-01 3.814360e-02 -1.709507e-01 -9.737458e-01 -1.709507e-01 -9.737458e-01 -1.113740e-01 3.814360e-02
2.368421e+09 -8.799015e-02 7.349409e-02 -3.697719e-01 -9.159191e-01 -3.697719e-01 -9.159191e-01 -8.799015e-02 7.349409e-02
2.466165e+09 -5.263996e-02 9.589681e-02 -5.519663e-01 -8.183750e-01 -5.519663e-01 -8.183750e-01 -5.263996e-02 9.589681e-02
2.563910e+09 -1.171410e-02 1.017522e-01 -7.099218e-01 -6.854163e-01 -7.099218e-01 -6.854163e-01 -1.171410e-02 1.017522e-01
2.661654e+09 2.755053e-02 9.037091e-02 -8.369889e-01 -5.226838e-01 -8.369889e-01 -5.226838e-01 2.755053e-02 9.037091e-02
2.759398e+09 5.830621e-02 6.404903e-02 -9.276794e-01 -3.370204e-01 -9.276794e-01 -3.370204e-01 5.830621e-02 6.404903e-02
2.857143e+09 7.526107e-02 2.765246e-02 -9.778976e-01 -1.363071e-01 -9.778976e-01 -1.363071e-01 7.526107e-02 2.765246e-02
2.954887e+09 7.558980e-02 -1.223616e-02 -9.851895e-01 7.077322e-02 -9.851895e-01 7.077322e-02 7.558980e-02 -1.223616e-02
3.052632e+09 5.942488e-02 -4.847877e-02 -9.489658e-01 2.750725e-01 -9.489658e-01 2.750725e-01 5.942488e-02 -4.847877e-02
3.150376e+09 2.982349e-02 -7.465549e-02 -8.706423e-01 4.674113e-01 -8.706423e-01 4.674113e-01 2.982349e-02 -7.465549e-02
3.248120e+09 -7.800871e-03 -8.621474e-02 -7.536466e-01 6.390732e-01 -7.536466e-01 6.390732e-01 -7.800871e-03 -8.621474e-02
3.345865e+09 -4.668234e-02 -8.127497e-02 -6.032677e-01 7.822987e-01 -6.032677e-01 7.822987e-01 -4.668234e-02 -8.127497e-02
3.443609e+09 -7.994591e-02 -6.092089e-02 -4.263579e-01 8.907114e-01 -4.263579e-01 8.907114e-01 -7.994591e-02 -6.092089e-02
3.541353e+09 -1.018436e-01 -2.894557e-02 -2.309317e-01 9.596252e-01 -2.309317e-01 9.596252e-01 -1.018436e-01 -2.894557e-02
3.639098e+09 -1.087474e-01 8.892336e-03 -2.571918e-02 9.862127e-01 -2.571918e-02 9.862127e-01 -1.087474e-01 8.892336e-03
3.736842e+09 -9.972812e-02 4.593469e-02 1.802683e-01 9.695452e-01 1.802683e-01 9.695452e-01 -9.972812e-02 4.593469e-02
3.834586e+09 -7.663984e-02 7.580466e-02 3.781249e-01 9.105377e-01 3.781249e-01 9.105377e-01 -7.663984e-02 7.580466e-02
3.932331e+09 -4.372638e-02 9.349383e-02 5.593792e-01 8.118394e-01 5.593792e-01 8.118394e-01 -4.372638e-02 9.349383e-02
4.030075e+09 -6.840195e-03 9.618208e-02 7.162767e-01 6.776970e-01 7.162767e-01 6.776970e-01 -6.840195e-03 9.618208e-02
4.127820e+09 2.758438e-02 8.367094e-02 8.420379e-01 5.138048e-01 8.420379e-01 5.138048e-01 2.758438e-02 8.367094e-02
4.225564e+09 5.363382e-02 5.837303e-02 9.311097e-01 3.271306e-01 9.311097e-01 3.271306e-01 5.363382e-02 5.837303e-02
4.323308e+09 6.691717e-02 2.486502e-02 9.794165e-01 1.256975e-01 9.794165e-01 1.256975e-01 6.691717e-02 2.486502e-02
4.421053e+09 6.530298e-02 -1.092305e-02 9.845940e-01 -8.170126e-02 9.845940e-01 -8.170126e-02 6.530298e-02 -1.092305e-02
4.518797e+09 4.926447e-02 -4.274890e-02 9.461767e-01 -2.858649e-01 9.461767e-01 -2.858649e-01 4.926447e-02 -4.274890e-02
4.616541e+09 2.176734e-02 -6.515021e-02 8.656982e-01 -4.776178e-01 8.656982e-01 -4.776178e-01 2.176734e-02 -6.515021e-02
4.714286e+09 -1.228408e-02 -7.439215e-02 7.466731e-01 -6.482796e-01 7.466731e-01 -6.482796e-01 -1.228408e-02 -7.439215e-02
4.812030e+09 -4.694164e-02 -6.909548e-02 5.944447e-01 -7.901284e-01 5.944447e-01 -7.901284e-01 -4.694164e-02 -6.909548e-02
4.909774e+09 -7.628054e-02 -5.043149e-02 4.159063e-01 -8.968058e-01 4.159063e-01 -8.968058e-01 -7.628054e-02 -5.043149e-02
5.007519e+09 -9.543767e-02 -2.185635e-02 2.191283e-01 -9.636240e-01 2.191283e-01 -9.636240e-01 -9.543767e-02 -2.185635e-02
5.105263e+09 -1.014320e-01 1.155237e-02 1.293253e-02 -9.877555e-01 1.293253e-02 -9.877555e-01 -1.014320e-01 1.155237e-02
5.203008e+09 -9.362824e-02 4.402179e-02 -1.935401e-01 -9.683058e-01 -1.935401e-01 -9.683058e-01 -9.362824e-02 4.402179e-02
5.300752e+09 -7.377902e-02 7.009850e-02 -3.912387e-01 -9.062888e-01 -3.912387e-01 -9.062888e-01 -7.377902e-02 7.009850e-02
5.398496e+09 -4.565723e-02 8.557465e-02 -5.715702e-01 -8.045291e-01 -5.715702e-01 -8.045291e-01 -4.565723e-02 8.557465e-02
5.496241e+09 -1.435795e-02 8.817446e-02 -7.267252e-01 -6.675143e-01 -7.267252e-01 -6.675143e-01 -1.435795e-02 8.817446e-02
5.593985e+09 1.460388e-02 7.789727e-02 -8.499683e-01 -5.012089e-01 -8.499683e-01 -5.012089e-01 1.460388e-02 7.789727e-02
5.691729e+09 3.624739e-02 5.696980e-02 -9.359006e-01 -3.128302e-01 -9.359006e-01 -3.128302e-01 3.624739e-02 5.696980e-02
5.789474e+09 4.697391e-02 2.942164e-02 -9.806930e-01 -1.105796e-01 -9.806930e-01 -1.105796e-01 4.697391e-02 2.942164e-02
5.887218e+09 4.516844e-02 3.572353e-04 -9.822802e-01 9.667835e-02 -9.822802e-01 9.667835e-02 4.516844e-02 3.572353e-04
5.984962e+09 3.145225e-02 -2.495168e-02 -9.404937e-01 2.997903e-01 -9.404937e-01 2.997903e-01 3.145225e-02 -2.495168e-02
6.082707e+09 8.541642e-03 -4.199558e-02 -8.571117e-01 4.897296e-01 -8.571117e-01 4.897296e-01 8.541642e-03 -4.199558e-02
6.180451e+09 -1.926268e-02 -4.781356e-02 -7.358060e-01 6.580284e-01 -7.358060e-01 6.580284e-01 -1.926268e-02 -4.781356e-02
6.278195e+09 -4.686269e-02 -4.149531e-02 -5.819787e-01 7.971920e-01 -5.819787e-01 7.971920e-01 -4.686269e-02 -4.149531e-02
6.375940e+09 -6.928134e-02 -2.431014e-02 -4.024991e-01 9.010606e-01 -4.024991e-01 9.010606e-01 -6.928134e-02 -2.431014e-02
6.473684e+09 -8.254363e-02 5.543753e-04 -2.053626e-01 9.650893e-01 -2.053626e-01 9.650893e-01 -8.254363e-02 5.543753e-04
6.571429e+09 -8.436307e-02 2.858835e-02 6.973507e-04 9.865326e-01 6.973507e-04 9.865326e-01 -8.436307e-02 2.858835e-02
6.669173e+09 -7.451710e-02 5.477534e-02 2.066117e-01 9.645312e-01 2.066117e-01 9.645312e-01 -7.451710e-02 5.477534e-02
6.766917e+09 -5.485572e-02 7.447918e-02 4.033691e-01 9.001121e-01 4.033691e-01 9.001121e-01 -5.485572e-02 7.447918e-02
6.864662e+09 -2.895275e-02 8.424828e-02 5.823853e-01 7.961172e-01 5.823853e-01 7.961172e-01 -2.895275e-02 8.424828e-02
6.962406e+09 -1.467792e-03 8.240440e-02 7.358428e-01 6.570739e-01 7.358428e-01 6.570739e-01 -1.467792e-03 8.240440e-02
7.060150e+09 2.266893e-02 6.932244e-02 8.570021e-01 4.890150e-01 8.570021e-01 4.890150e-01 2.266893e-02 6.932244e-02
7.157895e+09 3.911173e-02 4.735920e-02 9.404823e-01 2.992485e-01 9.404823e-01 2.992485e-01 3.911173e-02 4.735920e-02
7.255639e+09 4.485250e-02 2.044487e-02 9.825062e-01 9.607542e-02 9.825062e-01 9.607542e-02 4.485250e-02 2.044487e-02
7.353383e+09 3.874537e-02 -6.594756e-03 9.810960e-01 -1.115484e-01 9.810960e-01 -1.115484e-01 3.874537e-02 -6.594756e-03
7.451128e+09 2.171281e-02 -2.887181e-02 9.362015e-01 -3.144004e-01 9.362015e-01 -3.144004e-01 2.171281e-02 -2.887181e-02
7.548872e+09 -3.404734e-03 -4.228348e-02 8.497393e-01 -5.034155e-01 8.497393e-01 -5.034155e-01 -3.404734e-03 -4.228348e-02
7.646617e+09 -3.233173e-02 -4.422558e-02 7.255291e-01 -6.701209e-01 7.255291e-01 -6.701209e-01 -3.233173e-02 -4.422558e-02
7.744361e+09 -6.008951e-02 -3.404709e-02 5.691240e-01 -8.070503e-01 5.691240e-01 -8.070503e-01 -6.008951e-02 -3.404709e-02
7.842105e+09 -8.184823e-02 -1.316635e-02 3.875407e-01 -9.081050e-01 3.875407e-01 -9.081050e-01 -8.184823e-02 -1.316635e-02
7.939850e+09 -9.374913e-02 1.516853e-02 1.889143e-01 -9.688353e-01 1.889143e-01 -9.688353e-01 -9.374913e-02 1.516853e-02
8.037594e+09 -9.355505e-02 4.642893e-02 -1.789653e-02 -9.866273e-01 -1.789653e-02 -9.866273e-01 -9.355505e-02 4.642893e-02
8.135338e+09 -8.102144e-02 7.556512e-02 -2.237232e-01 -9.607915e-01 -2.237232e-01 -9.607915e-01 -8.102144e-02 7.556512e-02
8.233083e+09 -5.793142e-02 9.784402e-02 -4.194951e-01 -8.925598e-01 -4.194951e-01 -8.925598e-01 -5.793142e-02 9.784402e-02
8.330827e+09 -2.779635e-02 1.096253e-01 -5.966246e-01 -7.850043e-01 -5.966246e-01 -7.850043e-01 -2.779635e-02 1.096253e-01
8.428571e+09 4.722627e-03 1.089511e-01 -7.473595e-01 -6.428887e-01 -7.473595e-01 -6.428887e-01 4.722627e-03 1.089511e-01
8.526316e+09 3.457448e-02 9.585685e-02 -8.650980e-01 -4.724636e-01 -8.650980e-01 -4.724636e-01 3.457448e-02 9.585685e-02
8.624060e+09 5.713568e-02 7.235803e-02 -9.446629e-01 -2.812091e-01 -9.446629e-01 -2.812091e-01 5.713568e-02 7.235803e-02
8.721805e+09 6.895375e-02 4.211604e-02 -9.825273e-01 -7.752979e-02 -9.825273e-01 -7.752979e-02 6.895375e-02 4.211604e-02
8.819549e+09 6.829707e-02 9.838937e-03 -9.769830e-01 1.295975e-01 -9.769830e-01 1.295975e-01 6.829707e-02 9.838937e-03
8.917293e+09 5.542168e-02 -1.948530e-02 -9.282373e-01 3.310119e-01 -9.282373e-01 3.310119e-01 5.542168e-02 -1.948530e-02
9.015038e+09 3.251108e-02 -4.139656e-02 -8.384235e-01 5.177807e-01 -8.384235e-01 5.177807e-01 3.251108e-02 -4.139656e-02
9.112782e+09 3.299957e-03 -5.267660e-02 -7.115185e-01 6.816109e-01 -7.115185e-01 6.816109e-01 3.299957e-03 -5.267660e-02
9.210526e+09 -2.755306e-02 -5.185019e-02 -5.531647e-01 8.152366e-01 -5.531647e-01 8.152366e-01 -2.755306e-02 -5.185019e-02
9.308271e+09 -5.523519e-02 -3.939122e-02 -3.704060e-01 9.127543e-01 -3.704060e-01 9.127543e-01 -5.523519e-02 -3.939122e-02
9.406015e+09 -7.555970e-02 -1.760434e-02 -1.713562e-01 9.698858e-01 -1.713562e-01 9.698858e-01 -7.555970e-02 -1.760434e-02
9.503759e+09 -8.562582e-02 9.791031e-03 3.517711e-02 9.841566e-01 3.517711e-02 9.841566e-01 -8.562582e-02 9.791031e-03
9.601504e+09 -8.425177e-02 3.829695e-02 2.400896e-01 9.549847e-01 2.400896e-01 9.549847e-01 -8.425177e-02 3.829695e-02
9.699248e+09 -7.211677e-02 6.338223e-02 4.343759e-01 8.836852e-01 4.343759e-01 8.836852e-01 -7.211677e-02 6.338223e-02
9.796992e+09 -5.159785e-02 8.121220e-02 6.095093e-01 7.733987e-01 6.095093e-01 7.733987e-01 -5.159785e-02 8.121220e-02
9.894737e+09 -2.633737e-02 8.924549e-02 7.577950e-01 6.289522e-01 7.577950e-01 6.289522e-01 -2.633737e-02 8.924549e-02
9.992481e+09 -6.181230e-04 8.660614e-02 8.726902e-01 4.566592e-01 8.726902e-01 4.566592e-01 -6.181230e-04 8.660614e-02
1.009023e+10 2.134886e-02 7.417701e-02 9.490840e-01 2.640641e-01 9.490840e-01 2.640641e-01 2.134886e-02 7.417701e-02
1.018797e+10 3.610765e-02 5.440551e-02 9.835291e-01 5.963368e-02 9.835291e-01 5.963368e-02 3.610765e-02 5.440551e-02
1.028571e+10 4.150161e-02 3.085833e-02 9.744132e-01 -1.475988e-01 9.744132e-01 -1.475988e-01 4.150161e-02 3.085833e-02
1.038346e+10 3.699180e-02 7.601971e-03 9.220559e-01 -3.484288e-01 9.220559e-01 -3.484288e-01 3.699180e-02 7.601971e-03
1.048120e+10 2.370002e-02 -1.148574e-02 8.287193e-01 -5.338972e-01 8.287193e-01 -5.338972e-01 2.370002e-02 -1.148574e-02
1.057895e+10 4.173599e-03 -2.335697e-02 6.985219e-01 -6.957078e-01 6.985219e-01 -6.957078e-01 4.173599e-03 -2.335697e-02
1.067669e+10 -1.808358e-02 -2.628043e-02 5.372577e-01 -8.266199e-01 5.372577e-01 -8.266199e-01 -1.808358e-02 -2.628043e-02
1.077444e+10 -3.922955e-02 -2.009360e-02 3.521267e-01 -9.207887e-01 3.521267e-01 -9.207887e-01 -3.922955e-02 -2.009360e-02
1.087218e+10 -5.574334e-02 -6.183092e-03 1.513960e-01 -9.740333e-01 1.513960e-01 -9.740333e-01 -5.574334e-02 -6.183092e-03
1.096992e+10 -6.501155e-02 1.279641e-02 -5.598794e-02 -9.840189e-01 -5.598794e-02 -9.840189e-01 -6.501155e-02 1.279641e-02
1.106767e+10 -6.574512e-02 3.340946e-02 -2.608087e-01 -9.503452e-01 -2.608087e-01 -9.503452e-01 -6.574512e-02 3.340946e-02
1.116541e+10 -5.816105e-02 5.204530e-02 -4.539917e-01 -8.745469e-01 -4.539917e-01 -8.745469e-01 -5.816105e-02 5.204530e-02
1.126316e+10 -4.390571e-02 6.553658e-02 -6.269978e-01 -7.600096e-01 -6.269978e-01 -7.600096e-01 -4.390571e-02 6.553658e-02
1.136090e+10 -2.573971e-02 7.168803e-02 -7.721871e-01 -6.118137e-01 -7.721871e-01 -6.118137e-01 -2.573971e-02 7.168803e-02
1.145865e+10 -7.042462e-03 6.962973e-02 -8.831429e-01 -4.365125e-01 -8.831429e-01 -4.365125e-01 -7.042462e-03 6.962973e-02
1.155639e+10 8.777528e-03 5.994028e-02 -9.549465e-01 -2.418534e-01 -9.549465e-01 -2.418534e-01 8.777528e-03 5.994028e-02
1.165414e+10 1.886725e-02 4.452320e-02 -9.843960e-01 -3.644898e-02 -9.843960e-01 -3.644898e-02 1.886725e-02 4.452320e-02
1.175188e+10 2.141104e-02 2.626087e-02 -9.701566e-01 1.705940e-01 -9.701566e-01 1.705940e-01 2.141104e-02 2.626087e-02
1.184962e+10 1.592984e-02 8.506289e-03 -9.128335e-01 3.700750e-01 -9.128335e-01 3.700750e-01 1.592984e-02 8.506289e-03
1.194737e+10 3.348893e-03 -5.499531e-03 -8.149583e-01 5.531136e-01 -8.149583e-01 5.531136e-01 3.348893e-03 -5.499531e-03
1.204511e+10 -1.417568e-02 -1.318465e-02 -6.808829e-01 7.115557e-01 -6.808829e-01 7.115557e-01 -1.417568e-02 -1.318465e-02
1.214286e+10 -3.363937e-02 -1.308243e-02 -5.165840e-01 8.383490e-01 -5.165840e-01 8.383490e-01 -3.363937e-02 -1.308243e-02
1.224060e+10 -5.171269e-02 -5.073339e-03 -3.293884e-01 9.278654e-01 -3.293884e-01 9.278654e-01 -5.171269e-02 -5.073339e-03
1.233835e+10 -6.531371e-02 9.606522e-03 -1.276337e-01 9.761519e-01 -1.276337e-01 9.761519e-01 -6.531371e-02 9.606522e-03
1.243609e+10 -7.213099e-02 2.858793e-02 7.971376e-02 9.810990e-01 7.971376e-02 9.810990e-01 -7.213099e-02 2.858793e-02
1.253383e+10 -7.100887e-02 4.878012e-02 2.834613e-01 9.425207e-01 2.834613e-01 9.425207e-01 -7.100887e-02 4.878012e-02
1.263158e+10 -6.213272e-02 6.689842e-02 4.745941e-01 8.621490e-01 4.745941e-01 8.621490e-01 -6.213272e-02 6.689842e-02
1.272932e+10 -4.698692e-02 8.001753e-02 6.446633e-01 7.435487e-01 6.446633e-01 7.435487e-01 -4.698692e-02 8.001753e-02
1.282707e+10 -2.809664e-02 8.605804e-02 7.861460e-01 5.919585e-01 7.861460e-01 5.919585e-01 -2.809664e-02 8.605804e-02
1.292481e+10 -8.599334e-03 8.412682e-02 8.927662e-01 4.140684e-01 8.927662e-01 4.140684e-01 -8.599334e-03 8.412682e-02
1.302256e+10 8.281028e-03 7.465736e-02 9.597686e-01 2.177375e-01 9.597686e-01 2.177375e-01 8.281028e-03 7.465736e-02
1.312030e+10 1.976949e-02 5.932877e-02 9.841343e-01 1.166170e-02 9.841343e-01 1.166170e-02 1.976949e-02 5.932877e-02
1.321805e+10 2.399683e-02 4.077885e-02 9.647281e-01 -1.950020e-01 9.647281e-01 -1.950020e-01 2.399683e-02 4.077885e-02
1.331579e+10 2.030224e-02 2.216015e-02 9.023668e-01 -3.930402e-01 9.023668e-01 -3.930402e-01 2.030224e-02 2.216015e-02
1.341353e+10 9.332314e-03 6.614029e-03 7.997983e-01 -5.736008e-01 7.997983e-01 -5.736008e-01 9.332314e-03 6.614029e-03
1.351128e+10 -7.078681e-03 -3.248493e-03 6.615881e-01 -7.286019e-01 6.615881e-01 -7.286019e-01 -7.078681e-03 -3.248493e-03
1.360902e+10 -2.622537e-02 -5.771661e-03 4.939151e-01 -8.511088e-01 4.939151e-01 -8.511088e-01 -2.622537e-02 -5.771661e-03
1.370677e+10 -4.498894e-02 -5.151403e-04 3.042861e-01 -9.356556e-01 3.042861e-01 -9.356556e-01 -4.498894e-02 -5.151403e-04
1.380451e+10 -6.035676e-02 1.169219e-02 1.011859e-01 -9.784934e-01 1.011859e-01 -9.784934e-01 -6.035676e-02 1.169219e-02
1.390226e+10 -6.991540e-02 2.891031e-02 -1.063154e-01 -9.777529e-01 -1.063154e-01 -9.777529e-01 -6.991540e-02 2.891031e-02
1.400000e+10 -7.223513e-02 4.842726e-02 -3.089763e-01 -9.335150e-01 -3.089763e-01 -9.335150e-01 -7.223513e-02 4.842726e-02
1.409774e+10 -6.708405e-02 6.721913e-02 -4.977961e-01 -8.477922e-01 -4.977961e-01 -8.477922e-01 -6.708405e-02 6.721913e-02
1.419549e+10 -5.544039e-02 8.245198e-02 -6.644084e-01 -7.244264e-01 -6.644084e-01 -7.244264e-01 -5.544039e-02 8.245198e-02
1.429323e+10 -3.930526e-02 9.194199e-02 -8.014410e-01 -5.689122e-01 -8.014410e-01 -5.689122e-01 -3.930526e-02 9.194199e-02
1.439098e+10 -2.135100e-02 9.449919e-02 -9.028306e-01 -3.881535e-01 -9.028306e-01 -3.881535e-01 -2.135100e-02 9.449919e-02
1.448872e+10 -4.465918e-03 9.010068e-02 -9.640839e-01 -1.901656e-01 -9.640839e-01 -1.901656e-01 -4.465918e-03 9.010068e-02
1.458647e+10 8.728011e-03 7.986779e-02 -9.824752e-01 1.627050e-02 -9.824752e-01 1.627050e-02 8.728011e-03 7.986779e-02
1.468421e+10 1.630432e-02 6.585400e-02 -9.571720e-01 2.219892e-01 -9.571720e-01 2.219892e-01 1.630432e-02 6.585400e-02
1.478195e+10 1.733778e-02 5.068151e-02 -8.892807e-01 4.178430e-01 -8.892807e-01 4.178430e-01 1.733778e-02 5.068151e-02
1.487970e+10 1.203718e-02 3.708932e-02 -7.818060e-01 5.951116e-01 -7.818060e-01 5.951116e-01 1.203718e-02 3.708932e-02
1.497744e+10 1.685307e-03 2.746990e-02 -6.395231e-01 7.458954e-01 -6.395231e-01 7.458954e-01 1.685307e-03 2.746990e-02
1.507519e+10 -1.160083e-02 2.347321e-02 -4.687643e-01 8.634748e-01 -4.687643e-01 8.634748e-01 -1.160083e-02 2.347321e-02
1.517293e+10 -2.524570e-02 2.574385e-02 -2.771333e-01 9.426143e-01 -2.771333e-01 9.426143e-01 -2.524570e-02 2.574385e-02
1.527068e+10 -3.666047e-02 3.383373e-02 -7.315921e-02 9.797951e-01 -7.315921e-02 9.797951e-01 -3.666047e-02 3.383373e-02
1.536842e+10 -4.368048e-02 4.630109e-02 1.340879e-01 9.733672e-01 1.340879e-01 9.733672e-01 -4.368048e-02 4.630109e-02
1.546617e+10 -4.492110e-02 6.097479e-02 3.354008e-01 9.236143e-01 3.354008e-01 9.236143e-01 -4.492110e-02 6.097479e-02
1.556391e+10 -3.999372e-02 7.533516e-02 5.218396e-01 8.327343e-01 5.218396e-01 8.327343e-01 -3.999372e-02 7.533516e-02
1.566165e+10 -2.954906e-02 8.694416e-02 6.851191e-01 7.047386e-01 6.851191e-01 7.047386e-01 -2.954906e-02 8.694416e-02
1.575940e+10 -1.514498e-02 9.385152e-02 8.179664e-01 5.452781e-01 8.179664e-01 5.452781e-01 -1.514498e-02 9.385152e-02
1.585714e+10 1.035154e-03 9.490920e-02 9.144370e-01 3.614029e-01 9.144370e-01 3.614029e-01 1.035154e-03 9.490920e-02
1.595489e+10 1.656259e-02 8.994336e-02 9.701788e-01 1.612628e-01 9.701788e-01 1.612628e-01 1.656259e-02 8.994336e-02
1.605263e+10 2.917604e-02 7.975790e-02 9.826333e-01 -4.624070e-02 9.826333e-01 -4.624070e-02 2.917604e-02 7.975790e-02
1.615038e+10 3.715653e-02 6.597197e-02 9.511648e-01 -2.518424e-01 9.511648e-01 -2.518424e-01 3.715653e-02 6.597197e-02
1.624812e+10 3.960117e-02 5.072212e-02 8.771064e-01 -4.463258e-01 8.771064e-01 -4.463258e-01 3.960117e-02 5.072212e-02
1.634586e+10 3.655019e-02 3.628231e-02 7.637168e-01 -6.209425e-01 7.637168e-01 -6.209425e-01 3.655019e-02 3.628231e-02
1.644361e+10 2.894787e-02 2.466919e-02 6.160442e-01 -7.678173e-01 6.160442e-01 -7.678173e-01 2.894787e-02 2.466919e-02
1.654135e+10 1.844655e-02 1.730154e-02 4.407026e-01 -8.803177e-01 4.407026e-01 -8.803177e-01 1.844655e-02 1.730154e-02
1.663910e+10 7.091138e-03 1.477289e-02 2.455688e-01 -9.533638e-01 2.455688e-01 -9.533638e-01 7.091138e-03 1.477289e-02
1.673684e+10 -3.058493e-03 1.677540e-02 3.941830e-02 -9.836640e-01 3.941830e-02 -9.836640e-01 -3.058493e-03 1.677540e-02
1.683459e+10 -1.029905e-02 2.218572e-02 -1.684807e-01 -9.698623e-01 -1.684807e-01 -9.698623e-01 -1.029905e-02 2.218572e-02
1.693233e+10 -1.358389e-02 2.929473e-02 -3.687913e-01 -9.125931e-01 -3.687913e-01 -9.125931e-01 -1.358389e-02 2.929473e-02
1.703008e+10 -1.269966e-02 3.613806e-02 -5.525302e-01 -8.144438e-01 -5.525302e-01 -8.144438e-01 -1.269966e-02 3.613806e-02
